Open On-Chip Debugger 0.12.0
Licensed under GNU GPL v2
For bug reports, read
	http://openocd.org/doc/doxygen/bugs.html
User : 3 4 options.c:52 configuration_output_handler(): debug_level: 3
User : 4 4 options.c:52 configuration_output_handler(): 
Debug: 5 4 options.c:233 add_default_dirs(): bindir=/opt/homebrew/Cellar/open-ocd/0.12.0_1/bin
Debug: 6 4 options.c:234 add_default_dirs(): pkgdatadir=/opt/homebrew/Cellar/open-ocd/0.12.0_1/share/openocd
Debug: 7 4 options.c:235 add_default_dirs(): exepath=/opt/homebrew/Cellar/open-ocd/0.12.0_1/bin
Debug: 8 4 options.c:236 add_default_dirs(): bin2data=../share/openocd
Debug: 9 4 configuration.c:33 add_script_search_dir(): adding /Users/nico/Library/Preferences/org.openocd
Debug: 10 4 configuration.c:33 add_script_search_dir(): adding /Users/nico/.config/openocd
Debug: 11 4 configuration.c:33 add_script_search_dir(): adding /Users/nico/.openocd
Debug: 12 4 configuration.c:33 add_script_search_dir(): adding /opt/homebrew/Cellar/open-ocd/0.12.0_1/bin/../share/openocd/site
Debug: 13 4 configuration.c:33 add_script_search_dir(): adding /opt/homebrew/Cellar/open-ocd/0.12.0_1/bin/../share/openocd/scripts
Debug: 14 4 command.c:155 script_debug(): command - ocd_find openocd-croc.cfg
Debug: 15 4 configuration.c:88 find_file(): found openocd-croc.cfg
Debug: 16 4 command.c:155 script_debug(): command - adapter driver jlink
Debug: 17 4 command.c:155 script_debug(): command - transport select jtag
Debug: 18 4 command.c:155 script_debug(): command - adapter speed 4000
Debug: 19 4 adapter.c:251 adapter_config_khz(): handle adapter khz
Debug: 20 4 adapter.c:215 adapter_khz_to_speed(): convert khz to adapter specific speed value
Debug: 21 4 adapter.c:215 adapter_khz_to_speed(): convert khz to adapter specific speed value
Debug: 22 4 command.c:155 script_debug(): command - jtag newtap croc cpu -irlen 5 -expected-id 0x1c0c5db3
Debug: 23 4 tcl.c:558 jim_newtap_cmd(): Creating New Tap, Chip: croc, Tap: cpu, Dotted: croc.cpu, 4 params
Debug: 24 4 tcl.c:582 jim_newtap_cmd(): Processing option: -irlen
Debug: 25 4 tcl.c:582 jim_newtap_cmd(): Processing option: -expected-id
Debug: 26 4 core.c:1478 jtag_tap_init(): Created Tap: croc.cpu @ abs position 0, irlen 5, capture: 0x1 mask: 0x3
Debug: 27 4 command.c:155 script_debug(): command - target create croc.cpu riscv -chain-position croc.cpu
Debug: 28 4 target.c:2199 target_free_all_working_areas_restore(): freeing all working areas
Debug: 29 5 riscv.c:432 riscv_create_target(): riscv_create_target()
Debug: 30 5 command.c:155 script_debug(): command - init
Debug: 31 5 command.c:155 script_debug(): command - target init
Debug: 32 5 command.c:155 script_debug(): command - target names
Debug: 33 5 command.c:155 script_debug(): command - croc.cpu cget -event gdb-flash-erase-start
Debug: 34 5 command.c:155 script_debug(): command - croc.cpu configure -event gdb-flash-erase-start reset init
Debug: 35 5 command.c:155 script_debug(): command - croc.cpu cget -event gdb-flash-write-end
Debug: 36 5 command.c:155 script_debug(): command - croc.cpu configure -event gdb-flash-write-end reset halt
Debug: 37 5 command.c:155 script_debug(): command - croc.cpu cget -event gdb-attach
Debug: 38 5 command.c:155 script_debug(): command - croc.cpu configure -event gdb-attach halt 1000
Debug: 39 5 target.c:1657 handle_target_init_command(): Initializing targets...
Debug: 40 5 riscv.c:445 riscv_init_target(): riscv_init_target()
Debug: 41 5 semihosting_common.c:109 semihosting_common_init():  
Debug: 42 5 jlink.c:636 jlink_init(): Using libjaylink 0.3.1 (compiled with 0.3.1)
Debug: 43 16 jlink.c:514 jaylink_log_handler(): Found device (VID:PID = 1366:0101, bus:address = 000:004)
Debug: 44 16 jlink.c:514 jaylink_log_handler(): Device: USB address = 0
Debug: 45 16 jlink.c:514 jaylink_log_handler(): Device: Serial number = 504400985
Debug: 46 16 jlink.c:514 jaylink_log_handler(): Allocating new device instance
Debug: 47 16 jlink.c:514 jaylink_log_handler(): Found 1 USB device(s)
Debug: 48 16 jlink.c:514 jaylink_log_handler(): Trying to open device (bus:address = 000:004)
Debug: 49 16 jlink.c:514 jaylink_log_handler(): Using endpoint 81 (IN) and 01 (OUT)
Debug: 50 17 jlink.c:514 jaylink_log_handler(): Device opened successfully
Info : 58 17 jlink.c:707 jlink_init(): J-Link Ultra V4 compiled Sep 22 2022 15:00:10
Info : 71 17 jlink.c:748 jlink_init(): Hardware version: 4.00
Info : 80 18 jlink.c:790 jlink_init(): VTarget = 3.396 V
Debug: 86 18 jlink.c:514 jaylink_log_handler(): Last read operation left 96 bytes in the buffer
Debug: 96 18 jlink.c:942 jlink_reset(): TRST: 0, SRST: 0
Debug: 114 22 adapter.c:215 adapter_khz_to_speed(): convert khz to adapter specific speed value
Debug: 115 22 adapter.c:219 adapter_khz_to_speed(): have adapter set up
Debug: 122 22 adapter.c:215 adapter_khz_to_speed(): convert khz to adapter specific speed value
Debug: 123 22 adapter.c:219 adapter_khz_to_speed(): have adapter set up
Info : 124 22 adapter.c:179 adapter_init(): clock speed 4000 kHz
Debug: 125 22 openocd.c:134 handle_init_command(): Debug Adapter init complete
Debug: 126 22 command.c:155 script_debug(): command - transport init
Debug: 127 22 transport.c:219 handle_transport_init(): handle_transport_init
Debug: 128 23 jlink.c:942 jlink_reset(): TRST: 0, SRST: 0
Debug: 133 23 core.c:830 jtag_add_reset(): SRST line released
Debug: 134 23 core.c:855 jtag_add_reset(): TRST line released
Debug: 135 23 core.c:328 jtag_call_event_callbacks(): jtag event: TAP reset
Debug: 136 23 command.c:155 script_debug(): command - jtag arp_init
Debug: 137 23 core.c:1509 jtag_init_inner(): Init JTAG chain
Debug: 138 23 core.c:328 jtag_call_event_callbacks(): jtag event: TAP reset
Debug: 146 23 core.c:1234 jtag_examine_chain(): DR scan interrogation for IDCODE/BYPASS
Debug: 147 23 core.c:328 jtag_call_event_callbacks(): jtag event: TAP reset
Info : 155 23 core.c:1133 jtag_examine_chain_display(): JTAG tap: croc.cpu tap/device found: 0x1c0c5db3 (mfg: 0x6d9 (PULP Platform), part: 0xc0c5, ver: 0x1)
Debug: 156 23 core.c:1364 jtag_validate_ircapture(): IR capture validation scan
Debug: 164 23 core.c:1422 jtag_validate_ircapture(): croc.cpu: IR capture 0x05
Debug: 165 23 command.c:155 script_debug(): command - dap init
Debug: 166 23 arm_dap.c:97 dap_init_all(): Initializing all DAPs ...
Debug: 167 23 openocd.c:151 handle_init_command(): Examining targets...
Debug: 168 23 target.c:1845 target_call_event_callbacks(): target event 19 (examine-start) for core croc.cpu
Debug: 169 23 riscv.c:1121 riscv_examine(): riscv_examine()
Debug: 177 23 riscv.c:406 dtmcontrol_scan(): DTMCONTROL: 0x0 -> 0x1071
Debug: 178 23 riscv.c:1131 riscv_examine(): dtmcontrol=0x1071
Debug: 179 23 riscv.c:1133 riscv_examine():   version=0x1
Debug: 180 24 riscv-013.c:2281 init_target(): init
Debug: 188 24 riscv-013.c:451 dtmcontrol_scan(): DTMCS: 0x0 -> 0x1071
Debug: 189 24 riscv-013.c:1571 examine(): dtmcontrol=0x1071
Debug: 190 24 riscv-013.c:1572 examine():   dmireset=0
Debug: 191 24 riscv-013.c:1573 examine():   idle=1
Debug: 192 24 riscv-013.c:1574 examine():   dmistat=0
Debug: 193 24 riscv-013.c:1575 examine():   abits=7
Debug: 194 24 riscv-013.c:1576 examine():   version=1
Debug: 195 24 riscv-013.c:257 get_dm(): [0] Allocating new DM
Debug: 203 24 riscv-013.c:397 scan(): 41b w 00000000 @10 -> + 00000000 @00; 0i
Debug: 211 24 riscv-013.c:397 scan(): 41b - 00000000 @10 -> + 00000000 @10; 0i
Debug: 219 24 riscv-013.c:397 scan(): 41b w 00000001 @10 -> + 00000000 @10; 0i
Debug: 220 24 riscv-013.c:407 scan():  dmactive -> 
Debug: 228 24 riscv-013.c:397 scan(): 41b - 00000000 @10 -> + 00000001 @10; 0i
Debug: 229 24 riscv-013.c:407 scan():  ->  dmactive
Debug: 237 24 riscv-013.c:397 scan(): 41b w 07ffffc1 @10 -> + 00000000 @10; 0i
Debug: 238 24 riscv-013.c:407 scan():  hasel hartselhi=1023 hartsello=1023 dmactive -> 
Debug: 246 24 riscv-013.c:397 scan(): 41b - 00000000 @10 -> + 07ffffc1 @10; 0i
Debug: 247 24 riscv-013.c:407 scan():  ->  hasel hartselhi=1023 hartsello=1023 dmactive
Debug: 255 25 riscv-013.c:397 scan(): 41b r 00000000 @10 -> + 00000000 @10; 0i
Debug: 263 25 riscv-013.c:397 scan(): 41b - 00000000 @10 -> b 00000000 @10; 0i
Debug: 264 25 riscv-013.c:462 increase_dmi_busy_delay(): dtmcs_idle=1, dmi_busy_delay=1, ac_busy_delay=0
Debug: 272 25 riscv-013.c:451 dtmcontrol_scan(): DTMCS: 0x10000 -> 0x1c71
Debug: 280 25 riscv-013.c:397 scan(): 41b - 00000000 @10 -> + 00000001 @10; 1i
Debug: 281 25 riscv-013.c:407 scan():  ->  dmactive
Debug: 289 25 riscv-013.c:397 scan(): 41b r 00000000 @11 -> + 00000000 @10; 1i
Debug: 297 25 riscv-013.c:397 scan(): 41b - 00000000 @11 -> b 00000000 @11; 1i
Debug: 298 25 riscv-013.c:462 increase_dmi_busy_delay(): dtmcs_idle=1, dmi_busy_delay=2, ac_busy_delay=0
Debug: 306 25 riscv-013.c:451 dtmcontrol_scan(): DTMCS: 0x10000 -> 0x1c71
Debug: 314 25 riscv-013.c:397 scan(): 41b - 00000000 @11 -> + 000c0c82 @11; 2i
Debug: 315 25 riscv-013.c:407 scan():  ->  allhavereset anyhavereset allrunning anyrunning authenticated version=2
Debug: 316 25 riscv-013.c:1621 examine(): dmstatus:  0x000c0c82
Debug: 317 25 riscv-013.c:1637 examine(): hartsellen=0
Debug: 325 25 riscv-013.c:397 scan(): 41b r 00000000 @12 -> + 00000000 @11; 2i
Debug: 333 26 riscv-013.c:397 scan(): 41b - 00000000 @12 -> b 00000000 @12; 2i
Debug: 334 26 riscv-013.c:462 increase_dmi_busy_delay(): dtmcs_idle=1, dmi_busy_delay=3, ac_busy_delay=0
Debug: 342 26 riscv-013.c:451 dtmcontrol_scan(): DTMCS: 0x10000 -> 0x1c71
Debug: 350 26 riscv-013.c:397 scan(): 41b - 00000000 @12 -> + 00212380 @12; 3i
Debug: 358 26 riscv-013.c:397 scan(): 41b r 00000000 @38 -> + 00000000 @12; 3i
Debug: 366 26 riscv-013.c:397 scan(): 41b - 00000000 @38 -> b 00000000 @38; 3i
Debug: 367 26 riscv-013.c:462 increase_dmi_busy_delay(): dtmcs_idle=1, dmi_busy_delay=4, ac_busy_delay=0
Debug: 375 26 riscv-013.c:451 dtmcontrol_scan(): DTMCS: 0x10000 -> 0x1c71
Debug: 383 26 riscv-013.c:397 scan(): 41b - 00000000 @38 -> + 20040407 @38; 4i
Debug: 384 26 riscv-013.c:407 scan():  ->  sbversion=1 sbaccess=2 sbasize=32 sbaccess32 sbaccess16 sbaccess8
Debug: 392 26 riscv-013.c:397 scan(): 41b r 00000000 @16 -> + 00000000 @38; 4i
Debug: 400 26 riscv-013.c:397 scan(): 41b - 00000000 @16 -> b 00000000 @16; 4i
Debug: 401 26 riscv-013.c:462 increase_dmi_busy_delay(): dtmcs_idle=1, dmi_busy_delay=5, ac_busy_delay=0
Debug: 409 27 riscv-013.c:451 dtmcontrol_scan(): DTMCS: 0x10000 -> 0x1c71
Debug: 417 27 riscv-013.c:397 scan(): 41b - 00000000 @16 -> + 08000002 @16; 5i
Debug: 418 27 riscv-013.c:407 scan():  ->  progbufsize=8 datacount=2
Info : 419 27 riscv-013.c:1668 examine(): datacount=2 progbufsize=8
Debug: 427 27 riscv-013.c:397 scan(): 41b r 00000000 @10 -> + 00000000 @16; 5i
Debug: 435 27 riscv-013.c:397 scan(): 41b - 00000000 @10 -> + 00000001 @10; 5i
Debug: 436 27 riscv-013.c:407 scan():  ->  dmactive
Debug: 444 27 riscv-013.c:397 scan(): 41b w 00000001 @10 -> + 00000000 @10; 5i
Debug: 445 27 riscv-013.c:407 scan():  dmactive -> 
Debug: 453 27 riscv-013.c:397 scan(): 41b - 00000000 @10 -> + 00000001 @10; 5i
Debug: 454 27 riscv-013.c:407 scan():  ->  dmactive
Debug: 462 27 riscv-013.c:397 scan(): 41b r 00000000 @11 -> + 00000000 @10; 5i
Debug: 470 27 riscv-013.c:397 scan(): 41b - 00000000 @11 -> + 000c0c82 @11; 5i
Debug: 471 27 riscv-013.c:407 scan():  ->  allhavereset anyhavereset allrunning anyrunning authenticated version=2
Debug: 479 28 riscv-013.c:397 scan(): 41b w 10000001 @10 -> + 00000000 @11; 5i
Debug: 480 28 riscv-013.c:407 scan():  dmactive ackhavereset -> 
Debug: 488 28 riscv-013.c:397 scan(): 41b - 00000000 @10 -> + 10000001 @10; 5i
Debug: 489 28 riscv-013.c:407 scan():  ->  dmactive ackhavereset
Debug: 490 28 riscv-013.c:1706 examine(): Detected 1 harts.
Debug: 498 28 riscv-013.c:397 scan(): 41b r 00000000 @11 -> + 00000000 @10; 5i
Debug: 506 28 riscv-013.c:397 scan(): 41b - 00000000 @11 -> + 00000c82 @11; 5i
Debug: 507 28 riscv-013.c:407 scan():  ->  allrunning anyrunning authenticated version=2
Debug: 508 28 riscv-013.c:4219 riscv013_halt_go(): halting hart 0
Debug: 516 28 riscv-013.c:397 scan(): 41b w 80000001 @10 -> + 00000000 @11; 5i
Debug: 517 28 riscv-013.c:407 scan(): haltreq dmactive -> 
Debug: 525 28 riscv-013.c:397 scan(): 41b - 00000000 @10 -> + 80000001 @10; 5i
Debug: 526 28 riscv-013.c:407 scan():  -> haltreq dmactive
Debug: 534 28 riscv-013.c:397 scan(): 41b r 00000000 @11 -> + 00000000 @10; 5i
Debug: 542 28 riscv-013.c:397 scan(): 41b - 00000000 @11 -> + 00000382 @11; 5i
Debug: 543 28 riscv-013.c:407 scan():  ->  allhalted anyhalted authenticated version=2
Debug: 551 28 riscv-013.c:397 scan(): 41b r 00000000 @11 -> + 00000000 @11; 5i
Debug: 559 29 riscv-013.c:397 scan(): 41b - 00000000 @11 -> + 00000382 @11; 5i
Debug: 560 29 riscv-013.c:407 scan():  ->  allhalted anyhalted authenticated version=2
Debug: 568 29 riscv-013.c:397 scan(): 41b w 00000001 @10 -> + 00000000 @11; 5i
Debug: 569 29 riscv-013.c:407 scan():  dmactive -> 
Debug: 577 29 riscv-013.c:397 scan(): 41b - 00000000 @10 -> + 00000001 @10; 5i
Debug: 578 29 riscv-013.c:407 scan():  ->  dmactive
Debug: 579 29 riscv-013.c:789 execute_abstract_command(): command=0x321008; access register, size=64, postexec=0, transfer=1, write=0, regno=0x1008
Debug: 587 29 riscv-013.c:397 scan(): 41b w 00321008 @17 -> + 00000000 @10; 5i
Debug: 595 29 riscv-013.c:397 scan(): 41b r 00000000 @16 -> + 00321008 @17; 5i
Debug: 603 29 riscv-013.c:397 scan(): 41b - 00000000 @16 -> + 08000202 @16; 5i
Debug: 604 29 riscv-013.c:407 scan():  ->  progbufsize=8 cmderr=2 datacount=2
Debug: 605 29 riscv-013.c:805 execute_abstract_command(): command 0x321008 failed; abstractcs=0x8000202
Debug: 613 29 riscv-013.c:397 scan(): 41b w 00000700 @16 -> + 00000000 @16; 5i
Debug: 614 29 riscv-013.c:407 scan():  cmderr=7 -> 
Debug: 622 29 riscv-013.c:397 scan(): 41b - 00000000 @16 -> + 00000700 @16; 5i
Debug: 623 29 riscv-013.c:407 scan():  ->  cmderr=7
Debug: 624 29 riscv-013.c:789 execute_abstract_command(): command=0x220301; access register, size=32, postexec=0, transfer=1, write=0, regno=0x301
Debug: 632 30 riscv-013.c:397 scan(): 41b w 00220301 @17 -> + 00000000 @16; 5i
Debug: 640 30 riscv-013.c:397 scan(): 41b r 00000000 @16 -> + 00220301 @17; 5i
Debug: 648 30 riscv-013.c:397 scan(): 41b - 00000000 @16 -> + 08000002 @16; 5i
Debug: 649 30 riscv-013.c:407 scan():  ->  progbufsize=8 datacount=2
Debug: 657 30 riscv-013.c:397 scan(): 41b r 00000000 @04 -> + 00000000 @16; 5i
Debug: 665 30 riscv-013.c:397 scan(): 41b - 00000000 @04 -> + 40100104 @04; 5i
Debug: 666 30 riscv-013.c:1493 register_read_direct(): {0} misa = 0x40100104
Debug: 667 30 riscv.c:3892 riscv_init_registers(): create register cache for 4194 registers
Debug: 668 30 riscv-013.c:1757 examine():  hart 0: XLEN=32, misa=0x40100104
Debug: 669 30 riscv-013.c:4800 riscv013_step_or_resume_current_hart(): resuming hart 0 (for step?=0)
Debug: 677 30 riscv-013.c:397 scan(): 41b r 00000000 @11 -> + 00000000 @04; 5i
Debug: 685 30 riscv-013.c:397 scan(): 41b - 00000000 @11 -> + 00000382 @11; 5i
Debug: 686 30 riscv-013.c:407 scan():  ->  allhalted anyhalted authenticated version=2
Debug: 694 31 riscv-013.c:397 scan(): 41b w 40000001 @10 -> + 00000000 @11; 5i
Debug: 695 31 riscv-013.c:407 scan():  resumereq dmactive -> 
Debug: 703 31 riscv-013.c:397 scan(): 41b - 00000000 @10 -> + 40000001 @10; 5i
Debug: 704 31 riscv-013.c:407 scan():  ->  resumereq dmactive
Debug: 712 31 riscv-013.c:397 scan(): 41b r 00000000 @11 -> + 00000000 @10; 5i
Debug: 720 31 riscv-013.c:397 scan(): 41b - 00000000 @11 -> + 00030c82 @11; 5i
Debug: 721 31 riscv-013.c:407 scan():  ->  allresumeack anyresumeack allrunning anyrunning authenticated version=2
Debug: 729 31 riscv-013.c:397 scan(): 41b w 00000001 @10 -> + 00000000 @11; 5i
Debug: 730 31 riscv-013.c:407 scan():  dmactive -> 
Debug: 738 31 riscv-013.c:397 scan(): 41b - 00000000 @10 -> + 00000001 @10; 5i
Debug: 739 31 riscv-013.c:407 scan():  ->  dmactive
Info : 740 31 riscv-013.c:1780 examine(): Examined RISC-V core; found 1 harts
Info : 741 31 riscv-013.c:1782 examine():  hart 0: XLEN=32, misa=0x40100104
Debug: 742 31 target.c:1845 target_call_event_callbacks(): target event 21 (examine-end) for core croc.cpu
Debug: 743 31 command.c:155 script_debug(): command - flash init
Debug: 744 31 tcl.c:1375 handle_flash_init_command(): Initializing flash devices...
Debug: 745 31 command.c:155 script_debug(): command - nand init
Debug: 746 31 tcl.c:487 handle_nand_init_command(): Initializing NAND devices...
Debug: 747 31 command.c:155 script_debug(): command - pld init
Debug: 748 31 pld.c:194 handle_pld_init_command(): Initializing PLDs...
Debug: 749 31 command.c:155 script_debug(): command - tpiu init
Info : 750 31 gdb_server.c:3791 gdb_target_start(): starting gdb server for croc.cpu on 3333
Info : 751 31 server.c:298 add_service(): Listening on port 3333 for gdb connections
Debug: 752 31 command.c:155 script_debug(): command - halt
Debug: 753 31 riscv.c:2186 riscv_openocd_poll(): polling all harts
Debug: 754 31 riscv.c:3304 riscv_set_current_hartid(): setting hartid to 0, was 0
Debug: 755 31 riscv.c:2091 riscv_poll_hart(): polling hart 0, target->state=0
Debug: 763 31 riscv-013.c:397 scan(): 41b r 00000000 @11 -> + 00000000 @10; 5i
Debug: 771 32 riscv-013.c:397 scan(): 41b - 00000000 @11 -> + 00030c82 @11; 5i
Debug: 772 32 riscv-013.c:407 scan():  ->  allresumeack anyresumeack allrunning anyrunning authenticated version=2
Debug: 773 32 riscv.c:2101 riscv_poll_hart():   triggered running
Debug: 774 32 target.c:3305 handle_halt_command(): -
Debug: 775 32 riscv.c:1235 riscv_halt(): [0] halting all harts
Debug: 776 32 riscv.c:1171 halt_prep(): [croc.cpu] prep hart, debug_reason=5
Debug: 777 32 riscv.c:3304 riscv_set_current_hartid(): setting hartid to 0, was 0
Debug: 785 32 riscv-013.c:397 scan(): 41b r 00000000 @11 -> + 00000000 @11; 5i
Debug: 793 32 riscv-013.c:397 scan(): 41b - 00000000 @11 -> + 00030c82 @11; 5i
Debug: 794 32 riscv-013.c:407 scan():  ->  allresumeack anyresumeack allrunning anyrunning authenticated version=2
Debug: 795 32 riscv.c:3304 riscv_set_current_hartid(): setting hartid to 0, was 0
Debug: 803 32 riscv-013.c:397 scan(): 41b r 00000000 @11 -> + 00000000 @11; 5i
Debug: 811 32 riscv-013.c:397 scan(): 41b - 00000000 @11 -> + 00030c82 @11; 5i
Debug: 812 32 riscv-013.c:407 scan():  ->  allresumeack anyresumeack allrunning anyrunning authenticated version=2
Debug: 813 32 riscv-013.c:4219 riscv013_halt_go(): halting hart 0
Debug: 821 32 riscv-013.c:397 scan(): 41b w 80000001 @10 -> + 00000000 @11; 5i
Debug: 822 32 riscv-013.c:407 scan(): haltreq dmactive -> 
Debug: 830 32 riscv-013.c:397 scan(): 41b - 00000000 @10 -> + 80000001 @10; 5i
Debug: 831 32 riscv-013.c:407 scan():  -> haltreq dmactive
Debug: 839 32 riscv-013.c:397 scan(): 41b r 00000000 @11 -> + 00000000 @10; 5i
Debug: 847 33 riscv-013.c:397 scan(): 41b - 00000000 @11 -> + 00030382 @11; 5i
Debug: 848 33 riscv-013.c:407 scan():  ->  allresumeack anyresumeack allhalted anyhalted authenticated version=2
Debug: 856 33 riscv-013.c:397 scan(): 41b r 00000000 @11 -> + 00000000 @11; 5i
Debug: 864 33 riscv-013.c:397 scan(): 41b - 00000000 @11 -> + 00030382 @11; 5i
Debug: 865 33 riscv-013.c:407 scan():  ->  allresumeack anyresumeack allhalted anyhalted authenticated version=2
Debug: 873 33 riscv-013.c:397 scan(): 41b w 00000001 @10 -> + 00000000 @11; 5i
Debug: 874 33 riscv-013.c:407 scan():  dmactive -> 
Debug: 882 33 riscv-013.c:397 scan(): 41b - 00000000 @10 -> + 00000001 @10; 5i
Debug: 883 33 riscv-013.c:407 scan():  ->  dmactive
Debug: 884 33 riscv.c:3314 riscv_invalidate_register_cache(): [0]
Debug: 885 33 target.c:1845 target_call_event_callbacks(): target event 0 (gdb-halt) for core croc.cpu
Debug: 886 33 target.c:1845 target_call_event_callbacks(): target event 1 (halted) for core croc.cpu
Debug: 887 33 riscv.c:2186 riscv_openocd_poll(): polling all harts
Debug: 888 33 riscv.c:3304 riscv_set_current_hartid(): setting hartid to 0, was 0
Debug: 889 33 riscv.c:2091 riscv_poll_hart(): polling hart 0, target->state=2
Debug: 897 33 riscv-013.c:397 scan(): 41b r 00000000 @11 -> + 00000000 @10; 5i
Debug: 905 33 riscv-013.c:397 scan(): 41b - 00000000 @11 -> + 00030382 @11; 5i
Debug: 906 33 riscv-013.c:407 scan():  ->  allresumeack anyresumeack allhalted anyhalted authenticated version=2
Info : 907 33 server.c:298 add_service(): Listening on port 6666 for tcl connections
Info : 908 33 server.c:298 add_service(): Listening on port 4444 for telnet connections
Debug: 909 33 command.c:155 script_debug(): command - init
Debug: 910 33 riscv.c:2186 riscv_openocd_poll(): polling all harts
Debug: 911 33 riscv.c:3304 riscv_set_current_hartid(): setting hartid to 0, was 0
Debug: 912 33 riscv.c:2091 riscv_poll_hart(): polling hart 0, target->state=2
Debug: 920 34 riscv-013.c:397 scan(): 41b r 00000000 @11 -> + 00000000 @11; 5i
Debug: 928 34 riscv-013.c:397 scan(): 41b - 00000000 @11 -> + 00030382 @11; 5i
Debug: 929 34 riscv-013.c:407 scan():  ->  allresumeack anyresumeack allhalted anyhalted authenticated version=2
Debug: 930 138 riscv.c:2186 riscv_openocd_poll(): polling all harts
Debug: 931 138 riscv.c:3304 riscv_set_current_hartid(): setting hartid to 0, was 0
Debug: 932 138 riscv.c:2091 riscv_poll_hart(): polling hart 0, target->state=2
Debug: 940 138 riscv-013.c:397 scan(): 41b r 00000000 @11 -> + 00000000 @11; 5i
Debug: 948 138 riscv-013.c:397 scan(): 41b - 00000000 @11 -> + 00030382 @11; 5i
Debug: 949 138 riscv-013.c:407 scan():  ->  allresumeack anyresumeack allhalted anyhalted authenticated version=2
Debug: 950 240 riscv.c:2186 riscv_openocd_poll(): polling all harts
Debug: 951 240 riscv.c:3304 riscv_set_current_hartid(): setting hartid to 0, was 0
Debug: 952 240 riscv.c:2091 riscv_poll_hart(): polling hart 0, target->state=2
Debug: 960 240 riscv-013.c:397 scan(): 41b r 00000000 @11 -> + 00000000 @11; 5i
Debug: 968 240 riscv-013.c:397 scan(): 41b - 00000000 @11 -> + 00030382 @11; 5i
Debug: 969 240 riscv-013.c:407 scan():  ->  allresumeack anyresumeack allhalted anyhalted authenticated version=2
Debug: 970 345 riscv.c:2186 riscv_openocd_poll(): polling all harts
Debug: 971 345 riscv.c:3304 riscv_set_current_hartid(): setting hartid to 0, was 0
Debug: 972 345 riscv.c:2091 riscv_poll_hart(): polling hart 0, target->state=2
Debug: 980 345 riscv-013.c:397 scan(): 41b r 00000000 @11 -> + 00000000 @11; 5i
Debug: 988 345 riscv-013.c:397 scan(): 41b - 00000000 @11 -> + 00030382 @11; 5i
Debug: 989 345 riscv-013.c:407 scan():  ->  allresumeack anyresumeack allhalted anyhalted authenticated version=2
Debug: 990 448 riscv.c:2186 riscv_openocd_poll(): polling all harts
Debug: 991 448 riscv.c:3304 riscv_set_current_hartid(): setting hartid to 0, was 0
Debug: 992 448 riscv.c:2091 riscv_poll_hart(): polling hart 0, target->state=2
Debug: 1000 449 riscv-013.c:397 scan(): 41b r 00000000 @11 -> + 00000000 @11; 5i
Debug: 1008 449 riscv-013.c:397 scan(): 41b - 00000000 @11 -> + 00030382 @11; 5i
Debug: 1009 449 riscv-013.c:407 scan():  ->  allresumeack anyresumeack allhalted anyhalted authenticated version=2
Debug: 1010 551 riscv.c:2186 riscv_openocd_poll(): polling all harts
Debug: 1011 551 riscv.c:3304 riscv_set_current_hartid(): setting hartid to 0, was 0
Debug: 1012 551 riscv.c:2091 riscv_poll_hart(): polling hart 0, target->state=2
Debug: 1020 551 riscv-013.c:397 scan(): 41b r 00000000 @11 -> + 00000000 @11; 5i
Debug: 1028 551 riscv-013.c:397 scan(): 41b - 00000000 @11 -> + 00030382 @11; 5i
Debug: 1029 551 riscv-013.c:407 scan():  ->  allresumeack anyresumeack allhalted anyhalted authenticated version=2
Debug: 1030 656 riscv.c:2186 riscv_openocd_poll(): polling all harts
Debug: 1031 656 riscv.c:3304 riscv_set_current_hartid(): setting hartid to 0, was 0
Debug: 1032 656 riscv.c:2091 riscv_poll_hart(): polling hart 0, target->state=2
Debug: 1040 656 riscv-013.c:397 scan(): 41b r 00000000 @11 -> + 00000000 @11; 5i
Debug: 1048 657 riscv-013.c:397 scan(): 41b - 00000000 @11 -> + 00030382 @11; 5i
Debug: 1049 657 riscv-013.c:407 scan():  ->  allresumeack anyresumeack allhalted anyhalted authenticated version=2
Debug: 1050 761 riscv.c:2186 riscv_openocd_poll(): polling all harts
Debug: 1051 761 riscv.c:3304 riscv_set_current_hartid(): setting hartid to 0, was 0
Debug: 1052 761 riscv.c:2091 riscv_poll_hart(): polling hart 0, target->state=2
Debug: 1060 761 riscv-013.c:397 scan(): 41b r 00000000 @11 -> + 00000000 @11; 5i
Debug: 1068 761 riscv-013.c:397 scan(): 41b - 00000000 @11 -> + 00030382 @11; 5i
Debug: 1069 761 riscv-013.c:407 scan():  ->  allresumeack anyresumeack allhalted anyhalted authenticated version=2
Debug: 1070 865 riscv.c:2186 riscv_openocd_poll(): polling all harts
Debug: 1071 865 riscv.c:3304 riscv_set_current_hartid(): setting hartid to 0, was 0
Debug: 1072 865 riscv.c:2091 riscv_poll_hart(): polling hart 0, target->state=2
Debug: 1080 865 riscv-013.c:397 scan(): 41b r 00000000 @11 -> + 00000000 @11; 5i
Debug: 1088 865 riscv-013.c:397 scan(): 41b - 00000000 @11 -> + 00030382 @11; 5i
